;$FILEVERSION=1.1
;$STARTTIME=45156.4312328935
;
;   Start time: 8/18/2023 10:20:58.522.0
;   Generated by PCAN-View v4.3.4.615
;
;   Message Number
;   |         Time Offset (ms)
;   |         |        Type
;   |         |        |        ID (hex)
;   |         |        |        |     Data Length
;   |         |        |        |     |   Data Bytes (hex) ...
;   |         |        |        |     |   |
;---+--   ----+----  --+--  ----+---  +  -+ -- -- -- -- -- -- --
     1)       412.9  Warng  FFFFFFFF  4  00 00 00 08  BUSHEAVY 
     2)      2614.9  Rx         00A0  8  06 00 00 00 00 00 00 00 
     3)      2618.6  Rx         0128  8  10 00 00 F3 00 17 04 C1 
     4)      2625.9  Rx         00A8  0  
     5)      2626.1  Rx         0120  0  
     6)      2631.1  Rx         0128  8  11 00 09 1A 00 00 00 00 
     7)      2639.0  Rx         00A8  0  
     8)      2644.7  Rx         0128  8  06 01 C9 01 00 00 00 00 
     9)      2652.5  Rx         00A8  0  
    10)      2666.3  Rx         0438  8  00 00 00 00 00 00 00 00 
    11)      2714.9  Rx         00A0  8  0E 00 00 00 00 00 00 00 
    12)      2732.7  Rx         0120  0  
    13)      2733.5  Rx         0138  8  00 EB 00 00 8F 00 00 00 
    14)      2737.4  Rx         00C0  8  00 00 00 00 00 00 00 00 
    15)      2737.8  Rx         0248  5  00 00 00 00 80 
    16)      2738.1  Rx         0210  2  00 00 
    17)      2746.0  Rx         0418  8  04 00 00 00 00 00 00 00 
    18)      2750.8  Rx         00C0  8  00 00 00 00 00 00 00 00 
    19)      2751.1  Rx         0248  5  00 00 00 00 80 
    20)      2751.6  Rx         0138  8  00 00 00 00 8F 00 00 00 
    21)      2751.7  Rx         0210  2  00 00 
    22)      2764.1  Rx         00C0  8  00 00 00 00 00 00 00 00 
    23)      2764.4  Rx         0248  5  00 00 00 00 80 
    24)      2764.8  Rx         0210  2  00 00 
    25)      2766.2  Rx         0418  8  05 00 00 00 00 00 00 00 
    26)      2769.2  Rx         0138  8  00 00 00 00 8F 00 00 00 
    27)      2777.4  Rx         00C0  8  00 00 00 00 00 00 00 00 
    28)      2777.7  Rx         0248  5  00 00 00 00 80 
    29)      2778.1  Rx         0210  2  00 00 
    30)      2786.9  Rx         0138  8  00 00 00 00 8F 00 00 00 
    31)      2791.0  Rx         0438  8  00 00 00 00 00 00 00 00 
    32)      2804.8  Rx         0138  8  00 00 00 00 8F 00 00 00 
    33)      2809.8  Rx         00C0  8  00 00 00 00 00 00 00 00 
    34)      2810.2  Rx         0248  5  00 00 00 00 80 
    35)      2810.6  Rx         0210  2  00 00 
    36)      2821.8  Rx         00C0  8  00 00 00 00 00 00 00 00 
    37)      2822.2  Rx         0248  5  00 00 00 00 80 
    38)      2822.5  Rx         0210  2  00 00 
    39)      2822.8  Rx         0138  8  00 00 00 00 8F 00 00 00 
    40)      2835.6  Rx         00C0  8  00 00 00 00 00 00 00 00 
    41)      2836.0  Rx         0248  5  00 00 00 00 80 
    42)      2836.3  Rx         0210  2  00 00 
    43)      2840.3  Rx         0138  8  00 00 00 00 8F 00 00 00 
    44)      2849.0  Rx         00C0  8  00 00 00 00 00 00 00 00 
    45)      2849.6  Rx         0248  5  00 00 00 00 80 
    46)      2849.9  Rx         0210  2  00 00 
    47)      2858.3  Rx         0138  8  00 00 00 00 8F 00 00 00 
    48)      2862.3  Rx         00C0  8  00 00 00 00 00 00 00 00 
    49)      2862.7  Rx         0248  5  00 00 00 00 80 
    50)      2863.0  Rx         0210  2  00 00 
    51)      2875.2  Rx         0438  8  00 00 00 00 00 00 00 00 
    52)      2875.9  Rx         0138  8  00 00 00 00 8F 00 00 00 
    53)      2893.0  Rx         00C0  8  00 00 00 00 00 00 00 00 
    54)      2893.4  Rx         0248  5  00 00 00 00 80 
    55)      2893.8  Rx         0138  8  00 00 00 00 8F 00 00 00 
    56)      2893.9  Rx         0210  2  00 00 
    57)      2905.9  Rx         00C0  8  00 00 00 00 00 00 00 00 
    58)      2906.2  Rx         0248  5  00 00 00 00 80 
    59)      2906.5  Rx         0210  2  00 00 
    60)      2911.4  Rx         0138  8  00 00 00 00 8F 00 00 00 
    61)      2919.1  Rx         00C0  8  00 00 00 00 00 00 00 00 
    62)      2919.5  Rx         0248  5  00 00 00 00 80 
    63)      2919.8  Rx         0210  2  00 00 
    64)      2929.7  Rx         0138  8  00 00 00 00 8F 00 00 00 
    65)      2932.9  Rx         00C0  8  00 00 00 00 00 00 00 00 
    66)      2933.3  Rx         0248  5  00 00 00 00 80 
    67)      2933.6  Rx         0210  2  00 00 
    68)      2946.1  Rx         00C0  8  00 00 00 00 00 00 00 00 
    69)      2946.4  Rx         0248  5  00 00 00 00 80 
    70)      2946.7  Rx         0210  2  00 00 
    71)      2947.2  Rx         0138  8  00 00 00 00 8F 00 00 00 
    72)      2959.5  Rx         0438  8  00 00 00 00 00 00 00 00 
    73)      2964.9  Rx         0138  8  00 00 00 00 8F 00 00 00 
    74)      2977.2  Rx         00C0  8  00 00 00 00 00 00 00 00 
    75)      2977.5  Rx         0248  5  00 00 00 00 80 
    76)      2977.8  Rx         0210  2  00 00 
    77)      2982.7  Rx         0138  8  00 00 00 00 8F 00 00 00 
    78)      2990.3  Rx         00C0  8  00 00 00 00 00 00 00 00 
    79)      2990.7  Rx         0248  5  00 00 00 00 80 
    80)      2991.0  Rx         0210  2  00 00 
    81)      3000.3  Rx         0138  8  00 00 00 00 8F 00 00 00 
    82)      3004.4  Rx         00C0  8  00 00 00 00 00 00 00 00 
    83)      3004.8  Rx         0248  5  00 00 00 00 80 
    84)      3005.2  Rx         0210  2  00 00 
    85)      3017.1  Rx         00C0  8  00 00 00 00 00 00 00 00 
    86)      3017.5  Rx         0248  5  00 00 00 00 80 
    87)      3017.8  Rx         0210  2  00 00 
    88)      3018.4  Rx         0138  8  00 00 00 00 8F 00 00 00 
    89)      3030.4  Rx         00C0  8  00 00 00 00 00 00 00 00 
    90)      3030.8  Rx         0248  5  00 00 00 00 80 
    91)      3031.1  Rx         0210  2  00 00 
    92)      3035.9  Rx         0138  8  00 00 00 00 8F 00 00 00 
    93)      3043.9  Rx         0438  8  00 00 00 00 00 00 00 00 
    94)      3053.6  Rx         0138  8  00 00 00 00 8F 00 00 00 
    95)      3062.4  Rx         00C0  8  00 00 00 00 00 00 00 00 
    96)      3062.8  Rx         0248  5  00 00 00 00 80 
    97)      3063.2  Rx         0210  2  00 00 
    98)      3071.4  Rx         0138  8  00 00 00 00 8F 00 00 00 
    99)      3075.0  Rx         00C0  8  00 00 00 00 00 00 00 00 
   100)      3075.4  Rx         0248  5  00 00 00 00 80 
   101)      3075.7  Rx         0210  2  00 00 
   102)      3089.4  Rx         00C0  8  00 00 00 00 00 00 00 00 
   103)      3089.5  Rx         0138  8  00 00 00 00 8F 00 00 00 
   104)      3089.7  Rx         0248  5  00 00 00 00 80 
   105)      3090.4  Rx         0210  2  00 00 
   106)      3101.5  Rx         00C0  8  00 00 00 00 00 00 00 00 
   107)      3101.9  Rx         0248  5  00 00 00 00 80 
   108)      3102.2  Rx         0210  2  00 00 
   109)      3106.9  Rx         0138  8  00 00 00 00 8F 00 00 00 
   110)      3115.4  Rx         00C0  8  00 00 00 00 00 00 00 00 
   111)      3115.8  Rx         0248  5  00 00 00 00 80 
   112)      3116.2  Rx         0210  2  00 00 
   113)      3124.7  Rx         0138  8  00 00 00 00 8F 00 00 00 
   114)      3129.3  Rx         0438  8  00 00 00 00 00 00 00 00 
   115)      3142.7  Rx         0138  8  00 00 00 00 8F 00 00 00 
   116)      3146.9  Rx         00C0  8  00 00 00 00 00 00 00 00 
   117)      3147.4  Rx         0248  5  00 00 00 00 80 
   118)      3147.7  Rx         0210  2  00 00 
   119)      3159.3  Rx         00C0  8  00 00 00 00 00 00 00 00 
   120)      3159.7  Rx         0248  5  00 00 00 00 80 
   121)      3160.0  Rx         0210  2  00 00 
   122)      3160.5  Rx         0138  8  00 00 00 0A 8F 00 00 00 
   123)      3170.4  Rx         0450  8  0A 01 00 00 00 00 00 00 
   124)      3172.8  Rx         00C0  8  00 00 00 20 00 00 00 00 
   125)      3173.1  Rx         0248  5  00 00 00 00 80 
   126)      3173.4  Rx         0210  2  00 00 
   127)      3178.0  Rx         0138  8  00 00 00 0A 8F 00 00 00 
   128)      3186.0  Rx         00C0  8  00 00 00 20 00 00 00 00 
   129)      3186.3  Rx         0248  5  00 00 00 00 80 
   130)      3186.7  Rx         0210  2  00 00 
   131)      3188.1  Rx         0450  8  0A 01 00 00 00 00 00 00 
   132)      3195.8  Rx         0138  8  00 00 00 0A 8F 00 00 00 
   133)      3199.2  Rx         00C0  8  00 00 00 20 00 00 00 00 
   134)      3199.6  Rx         0248  5  00 00 00 00 80 
   135)      3199.9  Rx         0210  2  00 00 
   136)      3212.9  Rx         0438  8  00 00 00 00 00 00 00 00 
   137)      3213.6  Rx         0138  8  00 00 00 0A 8F 00 00 00 
   138)      3230.7  Rx         00C0  8  00 00 00 20 00 00 00 00 
   139)      3231.1  Rx         0248  5  00 00 00 00 80 
   140)      3231.4  Rx         0210  2  00 00 
   141)      3231.6  Rx         0138  8  00 00 00 0A 8F 00 00 00 
   142)      3243.6  Rx         00C0  8  00 00 00 20 00 00 00 00 
   143)      3244.0  Rx         0248  5  00 00 00 00 80 
   144)      3244.3  Rx         0210  2  00 00 
   145)      3249.3  Rx         0138  8  00 00 00 0A 8F 00 00 00 
   146)      3257.3  Rx         00C0  8  00 00 00 20 00 00 00 00 
   147)      3257.6  Rx         0248  5  00 00 00 00 80 
   148)      3257.9  Rx         0210  2  00 00 
   149)      3266.9  Rx         0138  8  00 00 00 0A 8F 00 00 00 
   150)      3270.7  Rx         00C0  8  00 00 00 20 00 00 00 00 
   151)      3271.0  Rx         0248  5  00 00 00 00 80 
   152)      3271.4  Rx         0210  2  00 00 
   153)      3281.1  Rx         0420  8  00 14 3D 00 43 4F 44 45 
   154)      3283.6  Rx         00C0  8  00 00 00 20 00 00 00 00 
   155)      3284.0  Rx         0248  5  00 00 00 00 80 
   156)      3284.4  Rx         0210  2  00 00 
   157)      3285.0  Rx         0138  8  00 00 00 0A 8F 00 00 00 
   158)      3288.5  Rx         0420  8  20 34 35 20 20 20 20 20 
   159)      3297.3  Rx         0420  8  20 20 20 20 20 20 20 20 
   160)      3298.4  Rx         00C0  8  00 00 00 20 00 00 00 00 
   161)      3298.7  Rx         0248  5  00 00 00 00 80 
   162)      3299.1  Rx         0210  2  00 00 
   163)      3302.4  Rx         0138  8  00 00 00 0A 8F 00 00 00 
   164)      3311.1  Rx         00C0  8  00 00 00 20 00 00 00 00 
   165)      3311.5  Rx         0248  5  00 00 00 00 80 
   166)      3311.8  Rx         0210  2  00 00 
   167)      3320.3  Rx         0138  8  00 00 00 0A 8F 00 00 00 
   168)      3324.2  Rx         00C0  8  00 00 00 20 00 00 00 00 
   169)      3324.6  Rx         0248  5  00 00 00 00 80 
   170)      3324.9  Rx         0210  2  00 00 
   171)      3337.2  Rx         0438  8  00 00 00 00 00 00 00 00 
   172)      3338.0  Rx         0138  8  00 00 00 0A 8F 00 00 00 
   173)      3355.5  Rx         00C0  8  00 00 00 20 00 00 00 00 
   174)      3355.9  Rx         0138  8  00 00 00 0A 8F 00 00 00 
   175)      3356.0  Rx         0248  5  00 00 00 00 80 
   176)      3356.6  Rx         0210  2  00 00 
   177)      3368.2  Rx         00C0  8  00 00 00 20 00 00 00 00 
   178)      3368.5  Rx         0248  5  00 00 00 00 80 
   179)      3368.8  Rx         0210  2  00 00 
   180)      3373.6  Rx         0138  8  00 00 00 0A 8F 00 00 00 
   181)      3381.9  Rx         00C0  8  00 00 00 20 00 00 00 00 
   182)      3382.3  Rx         0248  5  00 00 00 00 80 
   183)      3382.7  Rx         0210  2  00 00 
   184)      3391.5  Rx         0138  8  00 00 00 0A 8F 00 00 00 
   185)      3394.9  Rx         00C0  8  00 00 00 20 00 00 00 00 
   186)      3395.2  Rx         0248  5  00 00 00 00 80 
   187)      3395.5  Rx         0210  2  00 00 
   188)      3408.7  Rx         00C0  8  00 00 00 20 00 00 00 00 
   189)      3409.0  Rx         0248  5  00 00 00 00 80 
   190)      3409.3  Rx         0138  8  00 00 00 0A 8F 00 00 00 
   191)      3409.5  Rx         0210  2  00 00 
   192)      3421.5  Rx         0438  8  00 00 00 00 00 00 00 00 
   193)      3426.9  Rx         0138  8  00 00 00 0A 8F 00 00 00 
   194)      3439.4  Rx         00C0  8  00 00 00 20 00 00 00 00 
   195)      3439.7  Rx         0248  5  00 00 00 00 80 
   196)      3440.0  Rx         0210  2  00 00 
   197)      3444.8  Rx         0138  8  00 00 00 0A 8F 00 00 00 
   198)      3452.5  Rx         00C0  8  00 00 00 20 00 00 00 00 
   199)      3452.8  Rx         0248  5  00 00 00 00 80 
   200)      3453.1  Rx         0210  2  00 00 
   201)      3462.6  Rx         0138  8  00 00 00 0A 8F 00 00 00 
   202)      3465.9  Rx         00C0  8  00 00 00 20 00 00 00 00 
   203)      3466.2  Rx         0248  5  00 00 00 00 80 
   204)      3466.6  Rx         0210  2  00 00 
   205)      3478.9  Rx         00C0  8  00 00 00 20 00 00 00 00 
   206)      3479.3  Rx         0248  5  00 00 00 00 80 
   207)      3479.7  Rx         0210  2  00 00 
   208)      3480.4  Rx         0138  8  00 00 00 0A 8F 00 00 00 
   209)      3492.6  Rx         00C0  8  00 00 00 20 00 00 00 00 
   210)      3492.9  Rx         0248  5  00 00 00 00 80 
   211)      3493.2  Rx         0210  2  00 00 
   212)      3498.0  Rx         0138  8  00 00 00 0A 8F 00 00 00 
   213)      3506.0  Rx         0438  8  00 00 00 00 00 00 00 00 
   214)      3515.9  Rx         0138  8  00 00 00 0A 8F 00 00 00 
   215)      3523.9  Rx         00C0  8  00 00 00 20 00 00 00 00 
   216)      3524.3  Rx         0248  5  00 00 00 00 80 
   217)      3524.5  Rx         0210  2  00 00 
   218)      3533.6  Rx         0138  8  00 00 00 0A 8F 00 00 00 
   219)      3536.6  Rx         00C0  8  00 00 00 20 00 00 00 00 
   220)      3537.0  Rx         0248  5  00 00 00 00 80 
   221)      3537.3  Rx         0210  2  00 00 
   222)      3550.5  Rx         00C0  8  00 00 00 20 00 00 00 00 
   223)      3550.8  Rx         0248  5  00 00 00 00 80 
   224)      3551.1  Rx         0210  2  00 00 
   225)      3551.5  Rx         0138  8  00 00 00 0A 8F 00 00 00 
   226)      3563.4  Rx         00C0  8  00 00 00 20 00 00 00 00 
   227)      3563.8  Rx         0248  5  00 00 00 00 80 
   228)      3564.1  Rx         0210  2  00 00 
   229)      3569.2  Rx         0138  8  00 00 00 0A 8F 00 00 00 
   230)      3576.9  Rx         00C0  8  00 00 00 20 00 00 00 00 
   231)      3577.3  Rx         0248  5  00 00 00 00 80 
   232)      3577.5  Rx         0210  2  00 00 
   233)      3586.9  Rx         0138  8  00 00 00 36 8F 00 00 00 
   234)      3590.7  Rx         0438  8  00 00 00 00 00 00 00 00 
   235)      3604.7  Rx         0138  8  00 00 00 36 8F 00 00 00 
   236)      3609.3  Rx         00C0  8  00 00 00 20 00 00 00 00 
   237)      3609.7  Rx         0248  5  00 00 00 00 80 
   238)      3610.0  Rx         0210  2  00 00 
   239)      3621.5  Rx         00C0  8  00 00 00 20 00 00 00 00 
   240)      3621.8  Rx         0248  5  00 00 00 00 80 
   241)      3622.1  Rx         0210  2  00 00 
   242)      3622.6  Rx         0138  8  00 00 00 36 8F 00 00 00 
   243)      3635.3  Rx         00C0  8  00 00 00 20 00 00 00 00 
   244)      3635.6  Rx         0248  5  00 00 00 00 80 
   245)      3636.0  Rx         0210  2  00 00 
   246)      3640.1  Rx         0138  8  00 00 00 36 8F 00 00 00 
   247)      3648.2  Rx         00C0  8  00 00 00 20 00 00 00 00 
   248)      3648.5  Rx         0248  5  00 00 00 00 80 
   249)      3648.8  Rx         0210  2  00 00 
   250)      3658.0  Rx         0138  8  00 00 00 36 8F 00 00 00 
   251)      3661.6  Rx         00C0  8  00 00 00 20 00 00 00 00 
   252)      3662.0  Rx         0248  5  00 00 00 00 80 
   253)      3662.3  Rx         0210  2  00 00 
   254)      3675.1  Rx         0438  8  00 00 00 00 00 00 00 00 
   255)      3675.7  Rx         0138  8  00 00 00 36 8F 00 00 00 
   256)      3692.7  Rx         00C0  8  00 00 00 20 00 00 00 00 
   257)      3693.1  Rx         0248  5  00 00 00 00 80 
   258)      3693.6  Rx         0210  2  00 00 
   259)      3693.7  Rx         0138  8  00 00 00 36 8F 00 00 00 
   260)      3705.7  Rx         00C0  8  00 00 00 20 00 00 00 00 
   261)      3706.1  Rx         0248  5  00 00 00 00 80 
   262)      3706.4  Rx         0210  2  00 00 
   263)      3711.5  Rx         0138  8  00 00 00 36 8F 00 00 00 
   264)      3719.2  Rx         00C0  8  00 00 00 20 00 00 00 00 
   265)      3719.5  Rx         0248  5  00 00 00 00 80 
   266)      3719.8  Rx         0210  2  00 00 
   267)      3729.6  Rx         0138  8  00 00 00 36 8F 00 00 00 
   268)      3732.4  Rx         00C0  8  00 00 00 20 00 00 00 00 
   269)      3732.8  Rx         0248  5  00 00 00 00 80 
   270)      3733.1  Rx         0210  2  00 00 
   271)      3746.2  Rx         00C0  8  00 00 00 20 00 00 00 00 
   272)      3746.5  Rx         0248  5  00 00 00 00 80 
   273)      3746.9  Rx         0210  2  00 00 
   274)      3747.1  Rx         0138  8  00 00 00 36 8F 00 00 00 
   275)      3759.3  Rx         0438  8  00 00 00 00 00 00 00 00 
   276)      3764.7  Rx         0138  8  00 00 00 36 8F 00 00 00 
   277)      3777.1  Rx         00C0  8  00 00 00 20 00 00 00 00 
   278)      3777.4  Rx         0248  5  00 00 00 00 80 
   279)      3777.7  Rx         0210  2  00 00 
   280)      3782.5  Rx         0138  8  00 00 00 36 8F 00 00 00 
   281)      3790.4  Rx         00C0  8  00 00 00 20 00 00 00 00 
   282)      3790.8  Rx         0248  5  00 00 00 00 80 
   283)      3791.1  Rx         0210  2  00 00 
   284)      3800.2  Rx         0138  8  00 00 00 36 8F 00 00 00 
   285)      3803.6  Rx         00C0  8  00 00 00 20 00 00 00 00 
   286)      3803.9  Rx         0248  5  00 00 00 00 80 
   287)      3804.3  Rx         0210  2  00 00 
   288)      3816.8  Rx         00C0  8  00 00 00 20 00 00 00 00 
   289)      3817.2  Rx         0248  5  00 00 00 00 80 
   290)      3817.5  Rx         0210  2  00 00 
   291)      3818.3  Rx         0138  8  00 00 00 36 8F 00 00 00 
   292)      3830.5  Rx         00C0  8  00 00 00 20 00 00 00 00 
   293)      3830.8  Rx         0248  5  00 00 00 00 80 
   294)      3831.1  Rx         0210  2  00 00 
   295)      3835.8  Rx         0138  8  00 00 00 36 8F 00 00 00 
   296)      3843.8  Rx         0438  8  00 00 00 00 00 00 00 00 
   297)      3853.5  Rx         0138  8  00 00 00 36 8F 00 00 00 
   298)      3862.0  Rx         00C0  8  00 00 00 20 00 00 00 00 
   299)      3862.5  Rx         0248  5  00 00 00 00 80 
   300)      3862.8  Rx         0210  2  00 00 
   301)      3870.4  Rx         0450  8  1E 01 00 00 00 00 00 00 
   302)      3871.3  Rx         0138  8  00 00 00 36 8F 00 00 00 
   303)      3874.8  Rx         00C0  8  00 00 00 20 00 00 00 00 
   304)      3875.2  Rx         0248  5  00 00 00 00 80 
   305)      3875.5  Rx         0210  2  00 00 
   306)      3889.3  Rx         00C0  8  00 00 00 20 00 00 00 00 
   307)      3889.5  Rx         0138  8  00 00 00 36 8F 00 00 00 
   308)      3889.6  Rx         0248  5  00 00 00 00 80 
   309)      3890.3  Rx         0210  2  00 00 
   310)      3901.7  Rx         00C0  8  00 00 00 20 00 00 00 00 
   311)      3902.1  Rx         0248  5  00 00 00 00 80 
   312)      3902.5  Rx         0210  2  00 00 
   313)      3906.8  Rx         0138  8  00 00 00 36 8F 00 00 00 
   314)      3915.4  Rx         00C0  8  00 00 00 20 00 00 00 00 
   315)      3915.8  Rx         0248  5  00 00 00 00 80 
   316)      3916.1  Rx         0210  2  00 00 
   317)      3924.7  Rx         0138  8  00 00 00 36 8F 00 00 00 
   318)      3929.0  Rx         0438  8  00 00 00 00 00 00 00 00 
   319)      3942.3  Rx         0138  8  00 00 00 36 8F 00 00 00 
   320)      3946.2  Rx         00C0  8  00 00 00 20 00 00 00 00 
   321)      3946.6  Rx         0248  5  00 00 00 00 80 
   322)      3947.0  Rx         0210  2  00 00 
   323)      3959.2  Rx         00C0  8  00 00 00 20 00 00 00 00 
   324)      3959.6  Rx         0248  5  00 00 00 00 80 
   325)      3959.9  Rx         0210  2  00 00 
   326)      3960.4  Rx         0138  8  00 00 00 36 8F 00 00 00 
   327)      3972.1  Rx         00C0  8  00 00 00 20 00 00 00 00 
   328)      3972.5  Rx         0248  5  00 00 00 00 80 
   329)      3972.8  Rx         0210  2  00 00 
   330)      3978.1  Rx         0138  8  00 00 00 36 8F 00 00 00 
   331)      3985.9  Rx         00C0  8  00 00 00 20 00 00 00 00 
   332)      3986.2  Rx         0248  5  00 00 00 00 80 
   333)      3986.5  Rx         0210  2  00 00 
   334)      3995.7  Rx         0138  8  00 00 00 36 8F 00 00 00 
   335)      3999.0  Rx         00C0  8  00 00 00 20 00 00 00 00 
   336)      3999.4  Rx         0248  5  00 00 00 00 80 
   337)      3999.7  Rx         0210  2  00 00 
   338)      4012.6  Rx         0438  8  00 00 00 00 00 00 00 00 
   339)      4013.5  Rx         0138  8  00 00 00 36 8F 00 00 00 
   340)      4030.4  Rx         00C0  8  00 00 00 20 00 00 00 00 
   341)      4030.8  Rx         0248  5  00 00 00 00 80 
   342)      4031.1  Rx         0210  2  00 00 
   343)      4031.6  Rx         0138  8  00 00 00 36 8F 00 00 00 
   344)      4043.5  Rx         00C0  8  00 00 00 20 00 00 00 00 
   345)      4043.9  Rx         0248  5  00 00 00 00 80 
   346)      4044.2  Rx         0210  2  00 00 
   347)      4049.0  Rx         0138  8  00 00 00 36 8F 00 00 00 
   348)      4057.0  Rx         00C0  8  00 00 00 20 00 00 00 00 
   349)      4057.4  Rx         0248  5  00 00 00 00 80 
   350)      4057.7  Rx         0210  2  00 00 
   351)      4066.8  Rx         0138  8  00 00 00 36 8F 00 00 00 
   352)      4070.6  Rx         00C0  8  00 00 00 20 00 00 00 00 
   353)      4070.9  Rx         0248  5  00 00 00 00 80 
   354)      4071.4  Rx         0210  2  00 00 
   355)      4083.4  Rx         00C0  8  00 00 00 20 00 00 00 00 
   356)      4083.8  Rx         0248  5  00 00 00 00 80 
   357)      4084.2  Rx         0210  2  00 00 
   358)      4085.1  Rx         0138  8  00 00 00 36 8F 00 00 00 
   359)      4097.2  Rx         0438  8  00 00 00 00 00 00 00 00 
   360)      4102.6  Rx         0138  8  00 00 00 36 8F 00 00 00 
   361)      4115.5  Rx         00C0  8  00 00 00 20 00 00 00 00 
   362)      4115.9  Rx         0248  5  00 00 00 00 80 
   363)      4116.2  Rx         0210  2  00 00 
   364)      4120.1  Rx         0138  8  00 00 00 36 8F 00 00 00 
   365)      4128.7  Rx         00C0  8  00 00 00 20 00 00 00 00 
   366)      4129.1  Rx         0248  5  00 00 00 00 80 
   367)      4129.4  Rx         0210  2  00 00 
   368)      4138.0  Rx         0138  8  00 00 00 36 8F 00 00 00 
   369)      4142.0  Rx         00C0  8  00 00 00 20 00 00 00 00 
   370)      4142.3  Rx         0248  5  00 00 00 00 80 
   371)      4142.7  Rx         0210  2  00 00 
   372)      4154.7  Rx         00C0  8  00 00 00 20 00 00 00 00 
   373)      4155.1  Rx         0248  5  00 00 00 00 80 
   374)      4155.4  Rx         0210  2  00 00 
   375)      4155.9  Rx         0138  8  00 00 00 36 8F 00 00 00 
   376)      4168.9  Rx         00C0  8  00 00 00 20 00 00 00 00 
   377)      4169.2  Rx         0248  5  00 00 00 00 80 
   378)      4169.5  Rx         0210  2  00 00 
   379)      4173.4  Rx         0138  8  00 00 00 36 8F 00 00 00 
   380)      4181.6  Rx         0438  8  00 00 00 00 00 00 00 00 
   381)      4191.5  Rx         0138  8  00 00 00 36 8F 00 00 00 
   382)      4199.2  Rx         00C0  8  00 00 00 20 00 00 00 00 
   383)      4199.6  Rx         0248  5  00 00 00 00 80 
   384)      4199.8  Rx         0210  2  00 00 
   385)      4209.0  Rx         0138  8  00 00 00 36 8F 00 00 00 
   386)      4212.5  Rx         00C0  8  00 00 00 20 00 00 00 00 
   387)      4212.8  Rx         0248  5  00 00 00 00 80 
   388)      4213.1  Rx         0210  2  00 00 
   389)      4225.7  Rx         00C0  8  00 00 00 20 00 00 00 00 
   390)      4226.0  Rx         0248  5  00 00 00 00 80 
   391)      4226.3  Rx         0210  2  00 00 
   392)      4227.1  Rx         0138  8  00 00 00 36 8F 00 00 00 
   393)      4239.0  Rx         00C0  8  00 00 00 20 00 00 00 00 
   394)      4239.3  Rx         0248  5  00 00 00 00 80 
   395)      4239.6  Rx         0210  2  00 00 
   396)      4244.7  Rx         0138  8  00 00 00 36 8F 00 00 00 
   397)      4252.4  Rx         00C0  8  00 00 00 20 00 00 00 00 
   398)      4253.0  Rx         0248  5  00 00 00 00 80 
   399)      4253.2  Rx         0210  2  00 00 
   400)      4262.3  Rx         0138  8  00 00 00 36 8F 00 00 00 
   401)      4265.9  Rx         0438  8  00 00 00 00 00 00 00 00 
   402)      4280.3  Rx         0138  8  00 00 00 36 8F 00 00 00 
   403)      4283.9  Rx         00C0  8  00 00 00 20 00 00 00 00 
   404)      4284.2  Rx         0248  5  00 00 00 00 80 
   405)      4284.6  Rx         0210  2  00 00 
